! Filename:       BFR92AC.S2P                                Version:   2.0
! NXP part #: BFR92A                                     Date: May 1990
! Bias condition: Vce=5V, Ic=10mA
!
#  MHz  S  MA  R  50
! Freq       S11            S21            S12            S22     !GUM [dB]
   40    .669  -16.6  23.024  164.2    .008   79.9    .970   -8.2 !    42.1
  100    .593  -39.2  19.631  145.4    .020   72.1    .873  -17.5 !    34.0
  200    .449  -67.6  14.753  125.9    .033   68.7    .716  -24.7 !    27.5
  300    .356  -86.7  11.181  113.9    .043   66.2    .620  -26.8 !    23.7
  400    .313  -99.2   8.899  106.3    .052   68.0    .562  -27.2 !    21.1
  500    .275 -113.9   7.512   99.9    .060   67.4    .531  -26.9 !    19.3
  600    .243 -120.1   6.336   95.7    .070   69.7    .512  -26.9 !    17.6
  700    .219 -127.0   5.513   92.2    .078   71.3    .499  -26.9 !    16.3
  800    .213 -139.5   4.868   88.8    .089   72.4    .494  -27.0 !    15.2
  900    .194 -144.7   4.391   85.8    .098   72.5    .488  -27.2 !    14.2
 1000    .182 -156.2   3.953   82.4    .106   73.1    .479  -27.4 !    13.2
 1200    .190 -163.4   3.339   77.5    .125   73.5    .472  -28.3 !    11.7
 1400    .193 -175.5   2.945   72.4    .144   73.3    .465  -30.1 !    10.6
 1600    .185 -179.0   2.626   69.3    .163   73.6    .466  -31.4 !     9.6
 1800    .163  163.1   2.316   65.0    .181   73.3    .465  -32.8 !     8.5
 2000    .179  156.0   2.174   61.7    .200   72.6    .462  -34.0 !     7.9
 2200    .210  142.6   1.977   57.6    .219   72.5    .443  -35.4 !     7.1
 2400    .216  144.8   1.857   54.6    .240   71.1    .429  -38.9 !     6.5
 2600    .230  143.8   1.762   52.1    .258   70.5    .424  -42.4 !     6.0
 2800    .213  136.1   1.657   49.3    .279   70.0    .427  -44.9 !     5.5
 3000    .240  127.1   1.571   45.5    .299   68.6    .419  -46.0 !     5.0